time	V(v_comp)	V(v_f)	V(v_ref)
0.000000000000000e+00	9.384840e-01	1.649997e+00	1.650000e+00
9.999999960041972e-12	9.384840e-01	1.649997e+00	1.650000e+00
1.999999992008394e-11	9.384840e-01	1.649997e+00	1.650000e+00
3.999999984016789e-11	9.384840e-01	1.649997e+00	1.650000e+00
7.999999968033578e-11	9.384840e-01	1.649997e+00	1.650001e+00
1.599999993606716e-10	9.384840e-01	1.649997e+00	1.650002e+00
3.199999987213431e-10	9.384840e-01	1.649997e+00	1.650003e+00
6.399999974426862e-10	9.384840e-01	1.649997e+00	1.650007e+00
1.279999994885372e-09	9.384840e-01	1.649997e+00	1.650013e+00
2.559999989770745e-09	9.384840e-01	1.649997e+00	1.650027e+00
5.119999979541490e-09	9.384840e-01	1.649997e+00	1.650053e+00
1.023999995908298e-08	9.384840e-01	1.649997e+00	1.650106e+00
2.047999991816596e-08	9.384840e-01	1.649997e+00	1.650212e+00
4.095999983633192e-08	9.384840e-01	1.649997e+00	1.650425e+00
8.191999967266383e-08	9.384840e-01	1.649997e+00	1.650849e+00
1.638399993453277e-07	9.384840e-01	1.649997e+00	1.651699e+00
3.276799986906553e-07	9.384840e-01	1.649997e+00	1.653397e+00
6.553599973813107e-07	9.384840e-01	1.649997e+00	1.656794e+00
1.310719994762621e-06	9.384841e-01	1.649997e+00	1.663588e+00
2.310719994762621e-06	9.384842e-01	1.649997e+00	1.673955e+00
3.310719994762621e-06	9.384843e-01	1.649997e+00	1.684321e+00
4.310719994762621e-06	9.384844e-01	1.649997e+00	1.694685e+00
5.310719994762620e-06	9.384844e-01	1.649997e+00	1.705047e+00
6.310719994762620e-06	9.384845e-01	1.649997e+00	1.715408e+00
7.310719994762620e-06	9.384846e-01	1.649997e+00	1.725765e+00
8.310719994762620e-06	9.384847e-01	1.649997e+00	1.736120e+00
9.310719994762621e-06	9.384848e-01	1.649997e+00	1.746472e+00
1.000500000000000e-05	9.384848e-01	1.649997e+00	1.753656e+00
1.010500000000000e-05	9.384848e-01	1.649997e+00	1.754691e+00
1.030500000000000e-05	9.384848e-01	1.649997e+00	1.756760e+00
1.070500000000000e-05	9.384849e-01	1.649997e+00	1.760898e+00
1.150500000000000e-05	9.384850e-01	1.649997e+00	1.769171e+00
1.250500000000000e-05	9.384850e-01	1.649997e+00	1.779509e+00
1.350500000000000e-05	9.384851e-01	1.649997e+00	1.789842e+00
1.450500000000000e-05	9.384852e-01	1.649997e+00	1.800169e+00
1.550500000000000e-05	9.384853e-01	1.649997e+00	1.810490e+00
1.650500000000000e-05	9.384853e-01	1.649997e+00	1.820805e+00
1.750500000000000e-05	9.384854e-01	1.649997e+00	1.831113e+00
1.850500000000000e-05	9.384854e-01	1.649997e+00	1.841414e+00
1.950500000000000e-05	9.384855e-01	1.649997e+00	1.851707e+00
2.001001000000000e-05	9.384856e-01	1.649997e+00	1.856903e+00
2.011001000000000e-05	9.384856e-01	1.649997e+00	1.857931e+00
2.031001000000000e-05	9.384856e-01	1.649997e+00	1.859988e+00
2.071001000000000e-05	9.384856e-01	1.649997e+00	1.864101e+00
2.151001000000000e-05	9.384856e-01	1.649997e+00	1.872321e+00
2.251001000000000e-05	9.384857e-01	1.649997e+00	1.882590e+00
2.351001000000000e-05	9.384857e-01	1.649997e+00	1.892849e+00
2.451001000000000e-05	9.384858e-01	1.649997e+00	1.903098e+00
2.551001000000000e-05	9.384859e-01	1.649997e+00	1.913338e+00
2.651001000000000e-05	9.384859e-01	1.649997e+00	1.923567e+00
2.751001000000000e-05	9.384860e-01	1.649997e+00	1.933785e+00
2.851001000000000e-05	9.384860e-01	1.649997e+00	1.943992e+00
2.951001000000000e-05	9.384861e-01	1.649997e+00	1.954188e+00
3.001501000000000e-05	9.384861e-01	1.649997e+00	1.959332e+00
3.011501000000000e-05	9.384861e-01	1.649997e+00	1.960350e+00
3.031501000000000e-05	9.384862e-01	1.649997e+00	1.962386e+00
3.071501000000000e-05	9.384862e-01	1.649997e+00	1.966457e+00
3.151501000000000e-05	9.384862e-01	1.649997e+00	1.974593e+00
3.251501000000000e-05	9.384862e-01	1.649997e+00	1.984751e+00
3.351500999999999e-05	9.384863e-01	1.649997e+00	1.994896e+00
3.451500999999999e-05	9.384863e-01	1.649997e+00	2.005028e+00
3.551500999999999e-05	9.384864e-01	1.649997e+00	2.015145e+00
3.651500999999999e-05	9.384865e-01	1.649997e+00	2.025248e+00
3.751500999999998e-05	9.384865e-01	1.649997e+00	2.035336e+00
3.851500999999998e-05	9.384865e-01	1.649997e+00	2.045409e+00
3.951500999999998e-05	9.384866e-01	1.649997e+00	2.055466e+00
4.002001000000000e-05	9.384866e-01	1.649997e+00	2.060539e+00
4.012001000000000e-05	9.384866e-01	1.649997e+00	2.061543e+00
4.032001000000000e-05	9.384866e-01	1.649997e+00	2.063551e+00
4.072001000000000e-05	9.384866e-01	1.649997e+00	2.067564e+00
4.152001000000000e-05	9.384866e-01	1.649997e+00	2.075583e+00
4.252001000000000e-05	9.384867e-01	1.649997e+00	2.085591e+00
4.352001000000000e-05	9.384867e-01	1.649997e+00	2.095582e+00
4.452000999999999e-05	9.384868e-01	1.649997e+00	2.105555e+00
4.552000999999999e-05	9.384868e-01	1.649997e+00	2.115510e+00
4.652000999999999e-05	9.384868e-01	1.649997e+00	2.125447e+00
4.752000999999999e-05	9.384869e-01	1.649997e+00	2.135365e+00
4.852000999999998e-05	9.384869e-01	1.649997e+00	2.145264e+00
4.952000999999998e-05	9.384869e-01	1.649997e+00	2.155143e+00
5.002501000000000e-05	9.384869e-01	1.649997e+00	2.160125e+00
5.012501000000000e-05	9.384869e-01	1.649997e+00	2.161110e+00
5.032501000000000e-05	9.384870e-01	1.649997e+00	2.163081e+00
5.072501000000000e-05	9.384870e-01	1.649997e+00	2.167021e+00
5.152501000000000e-05	9.384870e-01	1.649997e+00	2.174891e+00
5.252501000000000e-05	9.384871e-01	1.649997e+00	2.184709e+00
5.352500999999999e-05	9.384871e-01	1.649997e+00	2.194506e+00
5.452500999999999e-05	9.384871e-01	1.649997e+00	2.204282e+00
5.552500999999999e-05	9.384871e-01	1.649997e+00	2.214036e+00
5.652500999999999e-05	9.384872e-01	1.649997e+00	2.223767e+00
5.752500999999998e-05	9.384872e-01	1.649997e+00	2.233476e+00
5.852500999999998e-05	9.384872e-01	1.649997e+00	2.243162e+00
5.952500999999998e-05	9.384872e-01	1.649997e+00	2.252824e+00
6.003002000000000e-05	9.384873e-01	1.649997e+00	2.257695e+00
6.013002000000000e-05	9.384873e-01	1.649997e+00	2.258659e+00
6.033002000000000e-05	9.384873e-01	1.649997e+00	2.260585e+00
6.073002000000000e-05	9.384873e-01	1.649997e+00	2.264436e+00
6.153002000000000e-05	9.384873e-01	1.649997e+00	2.272125e+00
6.253002000000000e-05	9.384874e-01	1.649997e+00	2.281715e+00
6.353002000000000e-05	9.384874e-01	1.649997e+00	2.291280e+00
6.453002000000000e-05	9.384874e-01	1.649997e+00	2.300819e+00
6.553001999999999e-05	9.384874e-01	1.649997e+00	2.310333e+00
6.653001999999999e-05	9.384874e-01	1.649997e+00	2.319821e+00
6.753001999999999e-05	9.384875e-01	1.649997e+00	2.329282e+00
6.853001999999998e-05	9.384875e-01	1.649997e+00	2.338717e+00
6.953001999999998e-05	9.384875e-01	1.649997e+00	2.348124e+00
7.003502000000000e-05	9.384875e-01	1.649997e+00	2.352864e+00
7.013502000000001e-05	9.384875e-01	1.649997e+00	2.353802e+00
7.033502000000001e-05	9.384875e-01	1.649997e+00	2.355677e+00
7.073502000000001e-05	9.384875e-01	1.649997e+00	2.359423e+00
7.153502000000001e-05	9.384875e-01	1.649997e+00	2.366902e+00
7.253502000000001e-05	9.384876e-01	1.649997e+00	2.376226e+00
7.353502000000001e-05	9.384876e-01	1.649997e+00	2.385520e+00
7.453502000000001e-05	9.384876e-01	1.649997e+00	2.394786e+00
7.553502000000000e-05	9.384876e-01	1.649997e+00	2.404022e+00
7.653502000000000e-05	9.384876e-01	1.649997e+00	2.413229e+00
7.753502000000000e-05	9.384876e-01	1.649997e+00	2.422405e+00
7.853501999999999e-05	9.384877e-01	1.649997e+00	2.431551e+00
7.953501999999999e-05	9.384877e-01	1.649997e+00	2.440666e+00
8.004002000000000e-05	9.384877e-01	1.649997e+00	2.445257e+00
8.014002000000000e-05	9.384877e-01	1.649997e+00	2.446165e+00
8.034002000000001e-05	9.384877e-01	1.649997e+00	2.447981e+00
8.074002000000000e-05	9.384877e-01	1.649997e+00	2.451608e+00
8.154002000000001e-05	9.384878e-01	1.649997e+00	2.458847e+00
8.254002000000001e-05	9.384878e-01	1.649997e+00	2.467867e+00
8.354002000000000e-05	9.384878e-01	1.649997e+00	2.476855e+00
8.454002000000000e-05	9.384878e-01	1.649997e+00	2.485810e+00
8.554002000000000e-05	9.384878e-01	1.649997e+00	2.494732e+00
8.654002000000000e-05	9.384878e-01	1.649997e+00	2.503621e+00
8.754001999999999e-05	9.384878e-01	1.649997e+00	2.512476e+00
8.854001999999999e-05	9.384878e-01	1.649997e+00	2.521297e+00
8.954001999999999e-05	9.384879e-01	1.649997e+00	2.530084e+00
9.004502000000000e-05	9.384879e-01	1.649997e+00	2.534508e+00
9.014502000000000e-05	9.384879e-01	1.649997e+00	2.535383e+00
9.034502000000000e-05	9.384879e-01	1.649997e+00	2.537132e+00
9.074502000000000e-05	9.384879e-01	1.649997e+00	2.540626e+00
9.154502000000001e-05	9.384879e-01	1.649997e+00	2.547596e+00
9.254502000000000e-05	9.384879e-01	1.649997e+00	2.556278e+00
9.354502000000000e-05	9.384879e-01	1.649997e+00	2.564923e+00
9.454502000000000e-05	9.384879e-01	1.649997e+00	2.573533e+00
9.554502000000000e-05	9.384879e-01	1.649997e+00	2.582105e+00
9.654501999999999e-05	9.384879e-01	1.649997e+00	2.590641e+00
9.754501999999999e-05	9.384880e-01	1.649997e+00	2.599140e+00
9.854501999999999e-05	9.384880e-01	1.649997e+00	2.607602e+00
9.954501999999998e-05	9.384880e-01	1.649997e+00	2.616026e+00
1.000500000000000e-04	9.384880e-01	1.649997e+00	2.620265e+00
1.001500000000000e-04	9.384880e-01	1.649997e+00	2.621103e+00
1.003500000000000e-04	9.384880e-01	1.649997e+00	2.622779e+00
1.007500000000000e-04	9.384880e-01	1.649997e+00	2.626125e+00
1.015500000000000e-04	9.384880e-01	1.649997e+00	2.632800e+00
1.025500000000000e-04	9.384881e-01	1.649997e+00	2.641108e+00
1.035500000000000e-04	9.384881e-01	1.649997e+00	2.649377e+00
1.045500000000000e-04	9.384881e-01	1.649997e+00	2.657606e+00
1.055500000000000e-04	9.384881e-01	1.649997e+00	2.665796e+00
1.065500000000000e-04	9.384881e-01	1.649997e+00	2.673946e+00
1.075500000000000e-04	9.384881e-01	1.649997e+00	2.682055e+00
1.085500000000000e-04	9.384881e-01	1.649997e+00	2.690123e+00
1.095500000000000e-04	9.384881e-01	1.649997e+00	2.698151e+00
1.100550000000000e-04	9.384881e-01	1.649997e+00	2.702189e+00
1.101550000000000e-04	9.384881e-01	1.649997e+00	2.702987e+00
1.103550000000000e-04	9.384881e-01	1.649997e+00	2.704583e+00
1.107550000000000e-04	9.384881e-01	1.649997e+00	2.707769e+00
1.115550000000000e-04	9.384881e-01	1.649997e+00	2.714121e+00
1.125550000000000e-04	9.384881e-01	1.649997e+00	2.722023e+00
1.135550000000000e-04	9.384881e-01	1.649997e+00	2.729882e+00
1.145550000000000e-04	9.384882e-01	1.649997e+00	2.737700e+00
1.155550000000000e-04	9.384882e-01	1.649997e+00	2.745474e+00
1.165550000000000e-04	9.384882e-01	1.649997e+00	2.753205e+00
1.175550000000000e-04	9.384882e-01	1.649997e+00	2.760892e+00
1.185550000000000e-04	9.384882e-01	1.649997e+00	2.768536e+00
1.195550000000000e-04	9.384882e-01	1.649997e+00	2.776135e+00
1.200600000000000e-04	9.384882e-01	1.649997e+00	2.779956e+00
1.201600000000000e-04	9.384882e-01	1.649997e+00	2.780711e+00
1.203600000000000e-04	9.384882e-01	1.649997e+00	2.782221e+00
1.207600000000000e-04	9.384882e-01	1.649997e+00	2.785233e+00
1.215600000000000e-04	9.384882e-01	1.649997e+00	2.791238e+00
1.225600000000000e-04	9.384882e-01	1.649997e+00	2.798703e+00
1.235600000000000e-04	9.384882e-01	1.649997e+00	2.806122e+00
1.245600000000000e-04	9.384882e-01	1.649997e+00	2.813496e+00
1.255600000000000e-04	9.384882e-01	1.649997e+00	2.820824e+00
1.265600000000000e-04	9.384882e-01	1.649997e+00	2.828106e+00
1.275600000000000e-04	9.384882e-01	1.649997e+00	2.835341e+00
1.285600000000000e-04	9.384882e-01	1.649997e+00	2.842530e+00
1.295600000000000e-04	9.384882e-01	1.649997e+00	2.849671e+00
1.300650000000000e-04	9.384883e-01	1.649997e+00	2.853259e+00
1.301650000000000e-04	9.384883e-01	1.649997e+00	2.853969e+00
1.303650000000000e-04	9.384883e-01	1.649997e+00	2.855386e+00
1.307650000000000e-04	9.384883e-01	1.649997e+00	2.858213e+00
1.315650000000000e-04	9.384883e-01	1.649997e+00	2.863847e+00
1.325650000000000e-04	9.384883e-01	1.649997e+00	2.870845e+00
1.335650000000000e-04	9.384883e-01	1.649997e+00	2.877795e+00
1.345650000000000e-04	9.384883e-01	1.649997e+00	2.884696e+00
1.355650000000000e-04	9.384883e-01	1.649997e+00	2.891549e+00
1.365650000000000e-04	9.384883e-01	1.649997e+00	2.898353e+00
1.375650000000000e-04	9.384883e-01	1.649997e+00	2.905107e+00
1.385650000000000e-04	9.384883e-01	1.649997e+00	2.911812e+00
1.395650000000000e-04	9.384883e-01	1.649997e+00	2.918468e+00
1.400700000000000e-04	9.384884e-01	1.649997e+00	2.921809e+00
1.401700000000000e-04	9.384884e-01	1.649997e+00	2.922470e+00
1.403700000000000e-04	9.384884e-01	1.649997e+00	2.923789e+00
1.407700000000000e-04	9.384884e-01	1.649997e+00	2.926420e+00
1.415700000000000e-04	9.384884e-01	1.649997e+00	2.931660e+00
1.425700000000000e-04	9.384884e-01	1.649997e+00	2.938164e+00
1.435700000000000e-04	9.384884e-01	1.649997e+00	2.944617e+00
1.445700000000000e-04	9.384884e-01	1.649997e+00	2.951019e+00
1.455700000000000e-04	9.384884e-01	1.649997e+00	2.957369e+00
1.465700000000000e-04	9.384884e-01	1.649997e+00	2.963668e+00
1.475700000000000e-04	9.384884e-01	1.649997e+00	2.969915e+00
1.485700000000000e-04	9.384884e-01	1.649997e+00	2.976110e+00
1.495700000000000e-04	9.384884e-01	1.649997e+00	2.982253e+00
1.500750000000000e-04	9.384884e-01	1.649997e+00	2.985335e+00
1.501750000000000e-04	9.384884e-01	1.649997e+00	2.985944e+00
1.503750000000000e-04	9.384884e-01	1.649997e+00	2.987159e+00
1.507750000000000e-04	9.384884e-01	1.649997e+00	2.989585e+00
1.515750000000000e-04	9.384884e-01	1.649997e+00	2.994410e+00
1.525750000000000e-04	9.384884e-01	1.649997e+00	3.000394e+00
1.535750000000000e-04	9.384884e-01	1.649997e+00	3.006325e+00
1.545750000000000e-04	9.384884e-01	1.649997e+00	3.012202e+00
1.555750000000000e-04	9.384884e-01	1.649997e+00	3.018025e+00
1.565750000000000e-04	9.384884e-01	1.649997e+00	3.023794e+00
1.575750000000000e-04	9.384884e-01	1.649997e+00	3.029509e+00
1.585750000000000e-04	9.384884e-01	1.649997e+00	3.035169e+00
1.595750000000000e-04	9.384884e-01	1.649997e+00	3.040775e+00
1.600800000000000e-04	9.384884e-01	1.649997e+00	3.043585e+00
1.601800000000000e-04	9.384884e-01	1.649997e+00	3.044140e+00
1.603800000000000e-04	9.384884e-01	1.649997e+00	3.045248e+00
1.607800000000000e-04	9.384884e-01	1.649997e+00	3.047457e+00
1.615800000000000e-04	9.384884e-01	1.649997e+00	3.051849e+00
1.625800000000000e-04	9.384884e-01	1.649997e+00	3.057289e+00
1.635800000000000e-04	9.384884e-01	1.649997e+00	3.062674e+00
1.645800000000000e-04	9.384884e-01	1.649997e+00	3.068003e+00
1.655800000000000e-04	9.384884e-01	1.649997e+00	3.073276e+00
1.665800000000000e-04	9.384884e-01	1.649997e+00	3.078492e+00
1.675800000000000e-04	9.384884e-01	1.649997e+00	3.083653e+00
1.685800000000000e-04	9.384884e-01	1.649997e+00	3.088756e+00
1.695800000000000e-04	9.384885e-01	1.649997e+00	3.093803e+00
1.700850000000000e-04	9.384885e-01	1.649997e+00	3.096330e+00
1.701850000000000e-04	9.384885e-01	1.649997e+00	3.096829e+00
1.703850000000000e-04	9.384885e-01	1.649997e+00	3.097825e+00
1.707850000000000e-04	9.384885e-01	1.649997e+00	3.099809e+00
1.715850000000000e-04	9.384885e-01	1.649997e+00	3.103750e+00
1.725850000000000e-04	9.384885e-01	1.649997e+00	3.108625e+00
1.735850000000000e-04	9.384885e-01	1.649997e+00	3.113443e+00
1.745850000000000e-04	9.384885e-01	1.649997e+00	3.118202e+00
1.755850000000000e-04	9.384885e-01	1.649997e+00	3.122904e+00
1.765850000000000e-04	9.384885e-01	1.649997e+00	3.127548e+00
1.775850000000000e-04	9.384885e-01	1.649997e+00	3.132133e+00
1.785850000000000e-04	9.384885e-01	1.649997e+00	3.136660e+00
1.795850000000000e-04	9.384885e-01	1.649997e+00	3.141128e+00
1.800900000000000e-04	9.384885e-01	1.649997e+00	3.143362e+00
1.801900000000000e-04	9.384885e-01	1.649997e+00	3.143802e+00
1.803900000000000e-04	9.384885e-01	1.649997e+00	3.144682e+00
1.807900000000000e-04	9.384885e-01	1.649997e+00	3.146433e+00
1.815900000000000e-04	9.384885e-01	1.649997e+00	3.149909e+00
1.825900000000000e-04	9.384885e-01	1.649997e+00	3.154199e+00
1.835900000000000e-04	9.384885e-01	1.649997e+00	3.158430e+00
1.845900000000000e-04	9.384885e-01	1.649997e+00	3.162602e+00
1.855900000000000e-04	9.384885e-01	1.649997e+00	3.166714e+00
1.865900000000000e-04	9.384885e-01	1.649997e+00	3.170766e+00
1.875900000000000e-04	9.384885e-01	1.649997e+00	3.174758e+00
1.885900000000000e-04	9.384885e-01	1.649997e+00	3.178690e+00
1.895900000000000e-04	9.384885e-01	1.649997e+00	3.182561e+00
1.900950000000000e-04	9.384885e-01	1.649997e+00	3.184494e+00
1.901950000000000e-04	9.384885e-01	1.649997e+00	3.184874e+00
1.903950000000000e-04	9.384885e-01	1.649997e+00	3.185634e+00
1.907950000000000e-04	9.384885e-01	1.649997e+00	3.187146e+00
1.915950000000000e-04	9.384885e-01	1.649997e+00	3.190141e+00
1.925950000000000e-04	9.384885e-01	1.649997e+00	3.193830e+00
1.935950000000000e-04	9.384885e-01	1.649997e+00	3.197459e+00
1.945950000000000e-04	9.384885e-01	1.649997e+00	3.201026e+00
1.955950000000000e-04	9.384885e-01	1.649997e+00	3.204532e+00
1.965950000000000e-04	9.384885e-01	1.649997e+00	3.207977e+00
1.975950000000000e-04	9.384885e-01	1.649997e+00	3.211360e+00
1.985950000000000e-04	9.384885e-01	1.649997e+00	3.214681e+00
1.995950000000000e-04	9.384885e-01	1.649997e+00	3.217941e+00
2.001001000000000e-04	9.384885e-01	1.649997e+00	3.219564e+00
2.002001000000000e-04	9.384885e-01	1.649997e+00	3.219883e+00
2.004001000000000e-04	9.384885e-01	1.649997e+00	3.220520e+00
2.008001000000000e-04	9.384885e-01	1.649997e+00	3.221787e+00
2.016001000000000e-04	9.384885e-01	1.649997e+00	3.224290e+00
2.026001000000000e-04	9.384885e-01	1.649997e+00	3.227363e+00
2.036001000000000e-04	9.384885e-01	1.649997e+00	3.230374e+00
2.046001000000000e-04	9.384885e-01	1.649997e+00	3.233323e+00
2.056001000000000e-04	9.384885e-01	1.649997e+00	3.236209e+00
2.066001000000000e-04	9.384885e-01	1.649997e+00	3.239033e+00
2.076001000000000e-04	9.384885e-01	1.649997e+00	3.241793e+00
2.086001000000000e-04	9.384885e-01	1.649997e+00	3.244491e+00
2.096001000000000e-04	9.384885e-01	1.649997e+00	3.247126e+00
2.101051000000000e-04	9.384885e-01	1.649997e+00	3.248433e+00
2.102051000000000e-04	9.384885e-01	1.649997e+00	3.248690e+00
2.104051000000000e-04	9.384885e-01	1.649997e+00	3.249202e+00
2.108051000000000e-04	9.384885e-01	1.649997e+00	3.250217e+00
2.116051000000000e-04	9.384885e-01	1.649997e+00	3.252219e+00
2.126051000000000e-04	9.384885e-01	1.649997e+00	3.254664e+00
2.136051000000000e-04	9.384885e-01	1.649997e+00	3.257046e+00
2.146051000000000e-04	9.384885e-01	1.649997e+00	3.259365e+00
2.156051000000000e-04	9.384885e-01	1.649997e+00	3.261620e+00
2.166051000000000e-04	9.384885e-01	1.649997e+00	3.263811e+00
2.176051000000000e-04	9.384885e-01	1.649997e+00	3.265938e+00
2.186051000000000e-04	9.384885e-01	1.649997e+00	3.268002e+00
2.196051000000000e-04	9.384885e-01	1.649997e+00	3.270002e+00
2.201101000000000e-04	9.384885e-01	1.649997e+00	3.270988e+00
2.202101000000000e-04	9.384885e-01	1.649997e+00	3.271181e+00
2.204101000000000e-04	9.384885e-01	1.649997e+00	3.271565e+00
2.208101000000000e-04	9.384885e-01	1.649997e+00	3.272327e+00
2.216101000000000e-04	9.384885e-01	1.649997e+00	3.273819e+00
2.226101000000000e-04	9.384885e-01	1.649997e+00	3.275626e+00
2.236101000000000e-04	9.384885e-01	1.649997e+00	3.277369e+00
2.246101000000000e-04	9.384885e-01	1.649997e+00	3.279048e+00
2.256101000000000e-04	9.384885e-01	1.649997e+00	3.280663e+00
2.266101000000000e-04	9.384885e-01	1.649997e+00	3.282214e+00
2.276101000000000e-04	9.384885e-01	1.649997e+00	3.283700e+00
2.286101000000000e-04	9.384885e-01	1.649997e+00	3.285121e+00
2.296101000000000e-04	9.384885e-01	1.649997e+00	3.286478e+00
2.301151000000000e-04	9.384885e-01	1.649997e+00	3.287138e+00
2.302151000000000e-04	9.384885e-01	1.649997e+00	3.287267e+00
2.304151000000000e-04	9.384885e-01	1.649997e+00	3.287523e+00
2.308151000000000e-04	9.384885e-01	1.649997e+00	3.288027e+00
2.316151000000000e-04	9.384885e-01	1.649997e+00	3.289004e+00
2.326151000000000e-04	9.384885e-01	1.649997e+00	3.290166e+00
2.336151000000000e-04	9.384885e-01	1.649997e+00	3.291264e+00
2.346151000000000e-04	9.384885e-01	1.649997e+00	3.292297e+00
2.356151000000000e-04	9.384885e-01	1.649997e+00	3.293265e+00
2.366151000000000e-04	9.384885e-01	1.649997e+00	3.294168e+00
2.376151000000000e-04	9.384885e-01	1.649997e+00	3.295007e+00
2.386151000000000e-04	9.384885e-01	1.649997e+00	3.295780e+00
2.396151000000000e-04	9.384885e-01	1.649997e+00	3.296489e+00
2.401201000000000e-04	9.384885e-01	1.649997e+00	3.296822e+00
